time,V_C,I_L,V_IN,V_C
0.0,0.0,0.0,9.386528248798202,0.0
5e-07,0.08573647489079099,0.09043450750948626,4.316920856830068,0.08573647489079099
1e-06,0.28937822173997885,0.1262422275517259,2.309394127498119,0.28937822173997885
1.5e-06,0.5365258554714677,0.14009848642122638,4.147159977333001,0.5365258554714677
2e-06,0.8177579688188507,0.16797840201671296,7.840749497841844,0.8177579688188507
2.4999999999999998e-06,1.1868697144690175,0.2315249889430571,7.572286666950307,1.1868697144690175
3e-06,1.6675968157506822,0.2848440365758922,4.633527089102045,1.6675968157506822
3.5e-06,2.2171647546346076,0.30418776982105283,3.1871575979903604,2.2171647546346076
4e-06,2.7812091363951392,0.30343328370196915,3.7837343305238123,2.7812091363951392
4.5e-06,3.34080199396894,0.3025734036737443,8.10667023945339,3.34080199396894
4.9999999999999996e-06,3.9438191097509763,0.3643379336657212,21.24778528541259,3.9438191097509763
5.5e-06,4.754670979655927,0.520373295719009,36.00150663088311,4.754670979655927
6e-06,5.947626910293253,0.8005757032992975,51.324408452764004,5.947626910293253
6.5e-06,7.801893973307976,1.2079843471935985,66.67709743534189,7.801893973307976
7e-06,10.49178205180025,1.7285981264160153,80.50844358507821,10.49178205180025
7.499999999999999e-06,14.265348721905253,2.3466851231451917,91.19502798986883,14.265348721905253
8e-06,19.221150830589856,3.0184168307992225,100.24663597418133,19.221150830589856
8.5e-06,25.449589705080868,3.698618733012726,105.21432703810784,25.449589705080868
9e-06,32.88931332784433,4.327709080580935,107.04323462358235,32.88931332784433
9.499999999999999e-06,41.42663487474032,4.880163516741408,106.35127382384589,41.42663487474032
9.999999999999999e-06,50.89928738520054,5.32845881246781,106.16944620738221,50.89928738520054
1.05e-05,61.10729773353663,5.677724856378162,109.38285136670534,61.10729773353663
1.1e-05,71.87793657326372,5.936354846841964,108.35731965488027,71.87793657326372
1.15e-05,82.97853315435454,6.045121482562123,106.11090183627341,82.97853315435454
1.2e-05,94.14663795361308,5.9884344394903515,99.62013230245553,94.14663795361308
1.2499999999999999e-05,105.0960244867886,5.802351450504695,92.06872182795762,105.0960244867886
1.3e-05,115.55232226318697,5.474600470645482,87.38286455870377,115.55232226318697
1.35e-05,125.2434749832062,4.976648338235006,82.84888389481611,125.2434749832062
1.4e-05,133.891999121026,4.330805538241936,75.45379136581577,133.891999121026
1.45e-05,141.23674827948793,3.5604838880011807,66.8560681269638,141.23674827948793
1.4999999999999999e-05,147.04553654054422,2.6918515654262345,59.956374922000094,147.04553654054422
1.55e-05,151.14935229118655,1.7260599407061836,52.56377006465531,151.14935229118655
1.6e-05,153.36665930168505,0.6603817755987813,46.163707344986925,153.36665930168505
1.6499999999999998e-05,153.58510396353947,-0.4262325414825254,40.33175464560179,153.58510396353947
1.7e-05,151.79450051414327,-1.5110429936025456,35.01008692937452,151.79450051414327
1.75e-05,147.99943753919572,-2.5788369624592957,35.39174722877066,147.99943753919572
1.8e-05,142.28074338704016,-3.5792808964431355,36.81799415948083,142.28074338704016
1.85e-05,134.79860767528564,-4.483966635134107,33.37090362728714,134.79860767528564
1.8999999999999998e-05,125.70200838317659,-5.319775141035816,29.14669128004054,125.70200838317659
1.95e-05,115.13064691751339,-6.089144731635876,24.501383990298493,115.13064691751339
1.9999999999999998e-05,103.22406815776054,-6.765208975612656,21.618123201799875,103.22406815776054
2.05e-05,90.16276170468177,-7.318423557061513,17.607580642476794,90.16276170468177
2.1e-05,76.18336873669338,-7.7534884703795415,13.76475277904601,76.18336873669338
2.1499999999999997e-05,61.51667929556428,-8.065397110434384,12.147806227376357,61.51667929556428
2.2e-05,46.40469566262527,-8.239863924977438,12.286389456305095,46.40469566262527
2.2499999999999998e-05,31.104329881104995,-8.262731880458556,9.750030660048798,31.104329881104995
2.3e-05,15.869620378276132,-8.164723137836427,5.838610314836217,15.869620378276132
2.35e-05,0.9082998658621477,-7.9631203295506925,0.880257562293979,0.9082998658621477
2.4e-05,-13.581266451018145,-7.663541760969115,-3.8964476052256813,-13.581266451018145
2.45e-05,-27.40685074453006,-7.2628639398803925,-3.7460338339141925,-27.40685074453006
2.4999999999999998e-05,-40.38236256412374,-6.749221576494155,-2.431706716223747,-40.38236256412374
2.55e-05,-52.33487657586186,-6.127268105448213,-3.4994180997567748,-52.33487657586186
2.6e-05,-63.059317419035985,-5.414451383557948,-1.5844323711961605,-63.059317419035985
2.65e-05,-72.32039492726611,-4.585368031014681,6.123155630972525,-72.32039492726611
2.7e-05,-79.91150294650717,-3.6342081131309714,15.046706366545923,-79.91150294650717
2.7499999999999998e-05,-85.65575189419754,-2.576409557751443,18.93020420463636,-85.65575189419754
2.8e-05,-89.40596875925856,-1.4486581552528,20.736113848588804,-89.40596875925856
2.8499999999999998e-05,-91.0469328702388,-0.30774032555582465,24.29217271664319,-91.0469328702388
2.9e-05,-90.5754717772103,0.8259580496728618,26.303826718311193,-90.5754717772103
2.95e-05,-88.00772822492004,1.9469343421946799,28.836326844929197,-88.00772822492004
2.9999999999999997e-05,-83.38480413243242,3.030630372260646,32.141700413287985,-83.38480413243242
3.05e-05,-76.81113643689088,4.045932843914172,32.778080329147144,-76.81113643689088
3.1e-05,-68.45449709351803,4.955173344991053,30.34832989276606,-68.45449709351803
3.15e-05,-58.51442097355648,5.755906713758295,19.81764040000472,-58.51442097355648
3.2e-05,-47.31180670015388,6.309115907411407,6.6507533698502215,-47.31180670015388
3.25e-05,-35.32604875700779,6.588355432665004,-6.122153553016639,-35.32604875700779
3.2999999999999996e-05,-22.997742433502452,6.677666046442738,-18.585681471519656,-22.997742433502452
3.35e-05,-10.783358169899085,6.476277960588653,-26.370106235495715,-10.783358169899085
3.4e-05,0.8555050852823551,6.065829340097379,-35.219827468663254,0.8555050852823551
3.45e-05,11.55629485453526,5.453374629700673,-43.89539518412611,11.55629485453526
3.5e-05,20.96389513861443,4.673376661022134,-49.651375238841,20.96389513861443
3.5499999999999996e-05,28.828934854636547,3.8141968750123514,-51.34593252893442,28.828934854636547
3.6e-05,35.03757200945095,2.889946037042732,-54.115520873242176,35.03757200945095
3.65e-05,39.493389586779074,1.9137360751140884,-53.95926917960634,39.493389586779074
3.7e-05,42.1214696747946,0.9197940687421569,-53.27495677835852,42.1214696747946
3.75e-05,42.908902980568094,-0.06555025216564969,-54.24378402631839,42.908902980568094
3.7999999999999995e-05,41.89237930913818,-1.0192617616539734,-53.8865788181263,41.89237930913818
3.85e-05,39.1581503995323,-1.9215374071749707,-52.75147057269411,39.1581503995323
3.9e-05,34.82531799960937,-2.7559507197784967,-52.598143316366034,34.82531799960937
3.95e-05,29.01788573089071,-3.5105817878819794,-52.404713401863106,29.01788573089071
3.9999999999999996e-05,21.886233612405665,-4.173854835605598,-52.56660926789262,21.886233612405665
4.0499999999999995e-05,13.610762642817264,-4.733776227634599,-51.7636885202006,13.610762642817264
4.1e-05,4.4018948004221485,-5.1779344692193074,-48.043888823575394,4.4018948004221485
4.15e-05,-5.50120307171677,-5.489285802680119,-41.237051317426065,-5.50120307171677
4.2e-05,-15.818341240104244,-5.629807829920214,-35.99493155978995,-15.818341240104244
4.2499999999999996e-05,-26.229722608757477,-5.597560084362899,-28.267478491012984,-26.229722608757477
4.2999999999999995e-05,-36.43730903735066,-5.405025084117079,-25.167342570022143,-36.43730903735066
4.35e-05,-46.17050429700302,-5.072887265277333,-23.483204831344782,-46.17050429700302
4.4e-05,-55.186154070278306,-4.630032981923943,-20.423322543609636,-55.186154070278306
4.45e-05,-63.289078890663625,-4.100077969997842,-17.12980286774492,-63.289078890663625
4.4999999999999996e-05,-70.33831562486256,-3.490341351539131,-15.710222176309411,-70.33831562486256
4.5499999999999995e-05,-76.19930028039498,-2.82775021542263,-15.544869016979506,-76.19930028039498
4.6e-05,-80.79007047293604,-2.1361882925793436,-16.90425324049895,-80.79007047293604
4.65e-05,-84.08268529666509,-1.4356745567962994,-18.997764680677523,-84.08268529666509
4.7e-05,-86.09293238313066,-0.7404602004239713,-18.655712562037994,-86.09293238313066
4.7499999999999996e-05,-86.8217733744431,-0.051509636707690376,-17.322637110936483,-86.8217733744431
4.8e-05,-86.28680825893267,0.6278375255993742,-16.946021719067968,-86.28680825893267
4.85e-05,-84.51155493648933,1.291189090902645,-14.57129237490308,-84.51155493648933
4.9e-05,-81.5278713096409,1.9269862603981078,-10.77176938364335,-81.5278713096409
4.95e-05,-77.38382371922992,2.54087418186246,-5.0975799142600104,-77.38382371922992
4.9999999999999996e-05,-72.09921852284495,3.160294037748059,1.0133357106665164,-72.09921852284495
5.05e-05,-65.69109275588733,3.768270051362903,4.068902587258818,-65.69109275588733
5.1e-05,-58.201444287498376,4.305822795479402,5.218160282256066,-58.201444287498376
5.15e-05,-49.7892273651162,4.759175062152122,7.928320832089458,-49.7892273651162
5.2e-05,-40.60270934405901,5.149221916002673,11.910796869708799,-40.60270934405901
5.2499999999999995e-05,-30.765422094229407,5.475841874998548,15.427141586820522,-30.765422094229407
5.3e-05,-20.39228770331025,5.71555277786998,19.21727070178037,-20.39228770331025
5.35e-05,-9.65390098441118,5.865464840414189,24.843832819824023,-9.65390098441118
5.4e-05,1.3218856094079037,5.965701827215274,28.88761443209513,1.3218856094079037
5.4499999999999997e-05,12.428667628367272,6.025062368810369,32.765469483084736,12.428667628367272
5.4999999999999995e-05,23.57398566197299,6.015826723377251,35.34036592546276,23.57398566197299
5.55e-05,34.617624556815336,5.896830848995407,37.18230927360995,34.617624556815336
5.6e-05,45.38156178134307,5.709898727413126,41.31800339239,45.38156178134307
5.65e-05,55.75539693522681,5.485024071097724,47.37980731807691,55.75539693522681
5.6999999999999996e-05,65.64887801670397,5.197643808014037,55.086506007271936,65.64887801670397
5.7499999999999995e-05,74.98983220737857,4.8977232059434685,64.42579554791632,74.98983220737857
5.8e-05,83.82813629885936,4.647249326806445,72.68619919099672,83.82813629885936
5.85e-05,92.21203523543937,4.409791277570646,80.2109650474644,92.21203523543937
5.9e-05,100.12205892203833,4.12869795395399,85.49767564347951,100.12205892203833
5.9499999999999996e-05,107.49237378047202,3.8255455823681404,89.55889709562702,107.49237378047202
5.9999999999999995e-05,114.28985254629949,3.5135055740658996,92.00820284221203,114.28985254629949
6.05e-05,120.47852470311031,3.171233576298083,93.70200144948922,120.47852470311031
6.1e-05,126.00490994816434,2.793058598552413,95.18594060852135,126.00490994816434
6.149999999999999e-05,130.800040427394,2.379916091129003,95.24115631460181,130.800040427394
6.2e-05,134.80599502431417,1.941385375944515,98.25513291303213,134.80599502431417
6.25e-05,137.99050877112117,1.4962793405462618,97.89195529425353,137.99050877112117
6.3e-05,140.34277450526957,1.0464427603978332,94.01307855554873,140.34277450526957
6.35e-05,141.83226862590968,0.5561752285977998,92.5130013231794,141.83226862590968
6.4e-05,142.40040377291822,0.05186603076021634,93.33421484671437,142.40040377291822
6.45e-05,142.05464695343383,-0.41973133254614825,95.45381626024076,142.05464695343383
6.5e-05,140.86163968095607,-0.8568817934468344,98.13896907809062,140.86163968095607
6.549999999999999e-05,138.91532770822886,-1.2388059543430467,99.21735778014813,138.91532770822886
6.599999999999999e-05,136.28535003958558,-1.588624287074909,97.13723003074836,136.28535003958558
6.65e-05,133.0226809167963,-1.9303658150033618,93.81466262772267,133.0226809167963
6.7e-05,129.15849207440468,-2.2458734559352047,89.29977761836774,129.15849207440468
6.75e-05,124.7444263276424,-2.5194551292292733,86.61343615099464,124.7444263276424
6.8e-05,119.8207598351274,-2.787451043714561,83.31979391128523,119.8207598351274
6.85e-05,114.38967860247877,-3.065174591047546,77.65247199061498,114.38967860247877
6.9e-05,108.45466217740525,-3.3492069427419926,71.34963267310641,108.45466217740525
6.95e-05,102.0204836497054,-3.6173970501689547,65.98504785046099,102.0204836497054
7e-05,95.11847432381549,-3.8314809552751963,59.39673888518943,95.11847432381549
7.049999999999999e-05,87.85115754752255,-4.003814369711401,51.37219434149824,87.85115754752255
7.099999999999999e-05,80.25090259191839,-4.181076103567457,44.60105575192772,80.25090259191839
7.15e-05,72.32797896578528,-4.376191048063756,39.051432617863654,72.32797896578528
7.2e-05,64.07615142248503,-4.566295304111895,32.81147011669656,64.07615142248503
7.25e-05,55.49693412768896,-4.700928622663176,26.161034280276517,55.49693412768896
7.3e-05,46.68654907185121,-4.810672130693828,19.86840374011636,46.68654907185121
7.35e-05,37.65580360501831,-4.937031842997618,10.40220356315093,37.65580360501831
7.4e-05,28.428614479870287,-5.022098092682618,-1.9935509600630568,28.428614479870287
7.45e-05,19.08184912235368,-5.070943741875322,-14.72568142855882,19.08184912235368
7.5e-05,9.585156440014291,-5.187405015480631,-25.726147422262823,9.585156440014291
7.549999999999999e-05,-0.15673235248024753,-5.357338527260638,-32.98021116072265,-0.15673235248024753
7.599999999999999e-05,-10.201564144727104,-5.475958757915786,-34.45846422856096,-10.201564144727104
7.65e-05,-20.385744086901486,-5.503135021542739,-32.62103266200492,-20.385744086901486
7.7e-05,-30.51972854584969,-5.428355882229407,-30.729853353991803,-30.51972854584969
7.75e-05,-40.40230165001223,-5.225865963399932,-29.654801520638905,-40.40230165001223
7.8e-05,-49.8108764334436,-4.917353078780098,-30.879416405057206,-49.8108764334436
7.85e-05,-58.57935259486313,-4.540388028453219,-32.382738097120225,-58.57935259486313
7.9e-05,-66.5917753672868,-4.111855956843364,-33.80876330229876,-66.5917753672868
7.95e-05,-73.76737280034092,-3.6346489175195926,-34.58396891791479,-73.76737280034092
7.999999999999999e-05,-80.0145600809222,-3.1136777564953664,-36.34564691149406,-80.0145600809222
8.049999999999999e-05,-85.25366167950597,-2.5411499310793664,-35.757480645001806,-85.25366167950597
8.099999999999999e-05,-89.39566695670388,-1.9153291587729622,-31.134658790324895,-89.39566695670388
8.15e-05,-92.33929978415154,-1.2424277482722053,-26.220710818588408,-92.33929978415154
8.2e-05,-93.98471619132779,-0.5245054160211774,-20.65322252275113,-93.98471619132779
8.25e-05,-94.2475461941101,0.2452296422144178,-14.312507044180894,-94.2475461941101
8.3e-05,-93.07231953004121,1.022146988384214,-9.409644925130207,-93.07231953004121
8.35e-05,-90.47225727923508,1.7889373378912428,-5.00068750057748,-90.47225727923508
8.4e-05,-86.43294326937442,2.5713601936054853,-1.130967657723066,-86.43294326937442
8.45e-05,-80.97428529621288,3.3140654702859673,1.8072701974997754,-80.97428529621288
8.499999999999999e-05,-74.20287476737472,3.989302624853652,2.4530828971391947,-74.20287476737472
8.549999999999999e-05,-66.24260962468625,4.5938603635314825,2.892955631968155,-66.24260962468625
8.599999999999999e-05,-57.238415948408544,5.114003257759139,5.302846341906706,-57.238415948408544
8.65e-05,-47.36376750302399,5.532252101364725,11.500236690620559,-47.36376750302399
8.7e-05,-36.783288164286084,5.8972818453700215,20.856053545744597,-36.783288164286084
8.75e-05,-25.489851404282405,6.288969472205023,33.439168730865646,-25.489851404282405
8.8e-05,-13.474044498755397,6.6863951651512865,43.37701258524405,-13.474044498755397
8.85e-05,-0.7949375140937907,7.001040353683855,52.85165509123351,-0.7949375140937907
8.9e-05,12.439923047399606,7.3022706745386525,62.39612911226212,12.439923047399606
8.95e-05,26.16733162610899,7.536897983077428,74.38550503556978,26.16733162610899
8.999999999999999e-05,40.26273743765043,7.647944968544085,82.33574313921459,40.26273743765043
9.049999999999999e-05,54.5172854573149,7.720988949280071,85.30963972610792,54.5172854573149
9.099999999999999e-05,68.83263137029734,7.731896526902371,83.78897878893169,68.83263137029734
9.15e-05,83.02099032963606,7.563690463345437,76.14556657867001,83.02099032963606
9.2e-05,96.72768326217854,7.176675319734045,66.31286096984373,96.72768326217854
9.25e-05,109.5098640232604,6.5862259738145985,55.681042685329246,109.5098640232604
9.3e-05,121.00093948863955,5.793449351115732,46.61224387992681,121.00093948863955
9.35e-05,130.84516202148802,4.818843094082332,40.80684501235647,130.84516202148802
9.4e-05,138.7838346815992,3.742620287013116,40.86088756465569,138.7838346815992
9.449999999999999e-05,144.70821878111954,2.654184759273285,43.45488144820986,144.70821878111954
9.499999999999999e-05,148.60608830386747,1.5575327972134771,43.80838447322502,148.60608830386747
9.549999999999999e-05,150.46698979630267,0.4530798237266853,41.57540194529532,150.46698979630267
9.6e-05,150.29024795705672,-0.6460766851083788,39.20986057578176,150.29024795705672
9.65e-05,148.08733022614987,-1.72780747207258,35.224516798275104,148.08733022614987
9.7e-05,143.91627030473828,-2.7677076626773576,35.92876500195586,143.91627030473828
9.75e-05,137.9021807154166,-3.7159047324890726,39.678358016416034,137.9021807154166
9.8e-05,130.2312812956033,-4.544194974442362,40.890475219991956,130.2312812956033
9.85e-05,121.13904675806698,-5.255206249747013,38.06730409432603,121.13904675806698
9.9e-05,110.81898614849635,-5.875686909890752,37.560670509696045,110.81898614849635
9.949999999999999e-05,99.48426817152364,-6.365721754009761,38.05483882272588,99.48426817152364
9.999999999999999e-05,87.37313117403859,-6.702807190511752,39.971533056550356,87.37313117403859
0.00010049999999999999,74.74305224375857,-6.892500625652672,37.76009455235292,74.74305224375857
0.000101,61.870448575036654,-6.9683540830797615,33.31595238000793,61.870448575036654
0.0001015,48.95423955491366,-6.963565549231085,29.08272099296259,48.95423955491366
0.000102,36.11357852421057,-6.88387008504499,25.18922908172243,36.11357852421057
0.0001025,23.49028004628331,-6.734011677562473,21.127846307519526,23.49028004628331
0.000103,11.21886523500222,-6.514375206324823,18.16327420052045,11.21886523500222
0.0001035,-0.5734382452480276,-6.220986443373618,13.327173617657643,-0.5734382452480276
0.000104,-11.761639318060823,-5.854043639769049,8.391896145435716,-11.761639318060823
0.00010449999999999999,-22.20664770296189,-5.4255888651060875,4.795012251598955,-22.20664770296189
0.00010499999999999999,-31.783609653469778,-4.923375160071332,3.518891327087453,-31.783609653469778
0.00010549999999999999,-40.37803763479563,-4.350083682152604,3.705034054022758,-40.37803763479563
0.000106,-47.884731497677464,-3.726324350825764,0.6375428086730167,-47.884731497677464
0.0001065,-54.21021040659771,-3.0910125736493517,-5.317527208148185,-54.21021040659771
0.000107,-59.367530015851045,-2.485161273595181,-7.798960565234616,-59.367530015851045
0.0001075,-63.415006476106136,-1.8926315916977,-8.729361562780317,-63.415006476106136
0.000108,-66.366909595988,-1.29421029972261,-10.026343389664504,-66.366909595988
0.0001085,-68.20720759762835,-0.6821804646109917,-7.705434658850398,-68.20720759762835
0.00010899999999999999,-68.90165556312813,-0.06250263202595158,-3.8724565986684647,-68.90165556312813
0.00010949999999999999,-68.41932331065348,0.5869264692707701,2.1728225285150895,-68.41932331065348
0.00010999999999999999,-66.67929695423068,1.295354084545918,9.188505275890574,-66.67929695423068
0.00011049999999999999,-63.630404037498614,1.9981850182583494,20.80192004915059,-63.630404037498614
0.000111,-59.264847718607754,2.733871305381246,35.23444987893308,-59.264847718607754
0.0001115,-53.40213837993625,3.609217318003764,47.72534646788143,-53.40213837993625
0.000112,-45.901537670210715,4.486065904513943,60.05744534728697,-45.901537670210715
0.0001125,-36.77540289863862,5.3691531226085845,72.50909531360502,-36.77540289863862
0.000113,-26.010758494932375,6.273648848850961,85.02222348896657,-26.010758494932375
0.0001135,-13.58497523396574,7.131100951154925,93.41997420101278,-13.58497523396574
0.00011399999999999999,0.2906289425295192,7.8289600073539,101.17274059095473,0.2906289425295192
