time,V_C,I_L,V_IN,V_C
0.0,0.0,0.0,-2.132698391566817,0.0
5e-07,-0.019816449530561782,-0.023857359658903066,-10.606966790097177,-0.019816449530561782
1e-06,-0.16206976115383204,-0.13581209373188902,-20.214918339248584,-0.16206976115383204
1.5e-06,-0.5966816159601358,-0.33821757646566186,-29.92346561783423,-0.5966816159601358
2e-06,-1.461013522240724,-0.6089517170371588,-37.302651984597304,-1.461013522240724
2.4999999999999998e-06,-2.898835929418034,-0.9483145189331221,-41.19511482399258,-2.898835929418034
3e-06,-4.9803177690939595,-1.2972159601258137,-45.94998230347612,-4.9803177690939595
3.5e-06,-7.702237631832463,-1.6401278379577982,-48.11479298916502,-7.702237631832463
4e-06,-11.05363022198366,-1.9791057423772935,-49.653662404123594,-11.05363022198366
4.5e-06,-15.016205850465832,-2.2999932792878175,-52.48705263391703,-15.016205850465832
4.9999999999999996e-06,-19.55492495683013,-2.5966705124326315,-54.08073292822462,-19.55492495683013
5.5e-06,-24.594534164590726,-2.8409686438068897,-54.851995325789886,-24.594534164590726
6e-06,-30.035188293064213,-3.0215247141409862,-56.32880460724537,-30.035188293064213
6.5e-06,-35.76792796282164,-3.1617871190866653,-57.66536328076572,-35.76792796282164
7e-06,-41.715310258015116,-3.2561145217027656,-59.21245690972219,-41.715310258015116
7.499999999999999e-06,-47.79725579947729,-3.3004182265586617,-59.83856238885223,-47.79725579947729
8e-06,-53.90784290750704,-3.284843902324548,-57.79900391829293,-53.90784290750704
8.5e-06,-59.91934281545192,-3.1870641453375397,-52.81069370545591,-59.91934281545192
9e-06,-65.66688101896793,-2.9930657575529254,-48.86384735142233,-65.66688101896793
9.499999999999999e-06,-70.96177093102911,-2.7112476725868415,-42.47770818866429,-70.96177093102911
9.999999999999999e-06,-75.64593649561178,-2.348832061046448,-39.80096313138081,-75.64593649561178
1.05e-05,-79.59411560624044,-1.9115506549012555,-38.25469972659879,-79.59411560624044
1.1e-05,-82.69780327651583,-1.429753580776586,-35.43843741971122,-82.69780327651583
1.15e-05,-84.87647643379039,-0.9178167959765167,-32.292206296702986,-84.87647643379039
1.2e-05,-86.07605808849169,-0.3797809598884945,-30.669093760493183,-86.07605808849169
1.2499999999999999e-05,-86.26245788020904,0.1774444375608271,-30.112132557565808,-86.26245788020904
1.3e-05,-85.4177672160764,0.7314845103740587,-30.908061071907255,-85.4177672160764
1.35e-05,-83.585016975997,1.244953271106841,-32.43520836722661,-83.585016975997
1.4e-05,-80.84259347914202,1.704680391672943,-31.933120583329423,-80.84259347914202
1.45e-05,-77.28800544566049,2.1235714818768074,-30.548589626604663,-77.28800544566049
1.4999999999999999e-05,-72.99215212104893,2.503651286168929,-29.96608344838631,-72.99215212104893
1.55e-05,-68.0341142907956,2.846649376455762,-27.636053743189258,-68.0341142907956
1.6e-05,-62.47847460704875,3.1553163518077527,-23.973947704111342,-62.47847460704875
1.6499999999999998e-05,-56.38354958201398,3.4180937038681227,-18.535312461493138,-56.38354958201398
1.7e-05,-49.826643737053374,3.6591779739244275,-12.501641586867935,-49.826643737053374
1.75e-05,-42.83779533825501,3.890570859793169,-8.936461920822945,-42.83779533825501
1.8e-05,-35.442880624879116,4.084522412406094,-6.985750685145566,-35.442880624879116
1.85e-05,-27.757904579499304,4.214137657277974,-3.6838930669242838,-27.757904579499304
1.8999999999999998e-05,-19.894700911435166,4.272996373361935,0.792573312335651,-19.894700911435166
1.95e-05,-11.955961801724172,4.278830663688781,4.963455480854481,-11.955961801724172
1.9999999999999998e-05,-4.033135832132693,4.269779073015131,9.440959850098787,-4.033135832132693
2.05e-05,3.845220766563882,4.232947940998829,15.617170122773988,3.845220766563882
2.1e-05,11.654845472438943,4.194124894346775,20.559356791030833,11.654845472438943
2.1499999999999997e-05,19.356622126309787,4.120613322308514,25.430631857171015,19.356622126309787
2.2e-05,26.89638658945276,4.0278960440782186,29.229308010668234,26.89638658945276
2.2499999999999998e-05,34.21990719907092,3.8903959908042594,32.38492055340607,34.21990719907092
2.3e-05,41.24570605927201,3.6735103508815707,37.526228468417784,41.24570605927201
2.35e-05,47.85974139613414,3.4615493536567747,44.43316122541106,47.85974139613414
2.4e-05,54.095646775697745,3.2788483422679136,52.92652362746978,54.095646775697745
2.45e-05,60.068206974749344,3.173861643578058,63.06155671251289,60.068206974749344
2.4999999999999998e-05,65.86183067822515,3.0871884438419115,72.50994507305651,65.86183067822515
2.55e-05,71.4862407338665,2.9993496559529063,81.51186173717483,71.4862407338665
2.6e-05,77.03044707362157,2.994250008232029,88.70681325278754,77.03044707362157
2.65e-05,82.58357896758389,3.0008998969053744,94.88032927401468,82.58357896758389
2.7e-05,88.13351167386683,2.9962368062676945,99.64314395983023,88.13351167386683
2.7499999999999998e-05,93.69662158976595,3.010849422241199,103.67530740317123,93.69662158976595
2.8e-05,99.26516167009045,2.9980120142456803,107.44044856561784,99.26516167009045
2.8499999999999998e-05,104.78351152505182,2.9622462160720366,109.84869303829585,104.78351152505182
2.9e-05,110.23141838910408,2.9155572849907587,114.71146083655249,110.23141838910408
2.95e-05,115.57595891506888,2.848980155861615,116.61583522207651,115.57595891506888
2.9999999999999997e-05,120.7595458922837,2.743728566858112,115.26728970820236,120.7595458922837
3.05e-05,125.69192756903311,2.579288556041074,115.70941299742275,125.69192756903311
3.1e-05,130.27432888882646,2.3733060559756285,118.02230628404637,130.27432888882646
3.15e-05,134.4638491584373,2.1477663770514273,121.40917863794459,134.4638491584373
3.2e-05,138.23686897113095,1.918153393158301,125.28628961376481,138.23686897113095
3.25e-05,141.5868357967248,1.6939826322534925,127.77615246226419,141.5868357967248
3.2999999999999996e-05,144.5243498481396,1.4784851935778827,127.43990166605421,144.5243498481396
3.35e-05,147.05990228798507,1.2518225068610782,125.83486772885604,147.05990228798507
3.4e-05,149.1488723736403,0.9989481179139378,122.96115619354785,149.1488723736403
3.45e-05,150.7372666424905,0.7160716052632137,121.4385137704353,150.7372666424905
3.5e-05,151.77510672696883,0.4014372053513927,119.23356209655283,151.77510672696883
3.5499999999999996e-05,152.19503655112146,0.0445525050242897,114.76978970673946,152.19503655112146
3.6e-05,151.93013087872174,-0.3281696047684935,109.47865060321534,151.93013087872174
3.65e-05,150.95596293675922,-0.7302857351820974,104.7424374493967,150.95596293675922
3.7e-05,149.2001713812316,-1.1618696991097308,98.7243706365468,149.2001713812316
3.75e-05,146.62903800416194,-1.620421330978265,91.18778534646478,146.62903800416194
3.7999999999999995e-05,143.17010035983228,-2.09468633229982,84.44983608824083,143.17010035983228
3.85e-05,138.8343346100085,-2.5979735605930117,78.56366113544017,138.8343346100085
3.9e-05,133.54507866914187,-3.0994968934712763,71.91368949824339,133.54507866914187
3.95e-05,127.34806530428281,-3.6084668766430616,64.71786779244484,127.34806530428281
3.9999999999999996e-05,120.19206724413186,-4.113508281897369,57.65722363029766,120.19206724413186
4.0499999999999995e-05,112.10565171990946,-4.6261867657555245,47.66207055680603,112.10565171990946
4.1e-05,102.97066259945522,-5.36782643630923,34.81243361112378,102.97066259945522
4.15e-05,90.54689820121078,-8.264899795095365,21.280890121957864,90.54689820121078
4.2e-05,72.39480068394468,-10.987946358014637,8.893851876106536,72.39480068394468
4.2499999999999996e-05,50.63744779218428,-12.328952728761939,-0.492121735893381,50.63744779218428
4.2999999999999995e-05,27.471457769421807,-12.5011508493637,-4.919646718110714,27.471457769421807
4.35e-05,5.3045382727671555,-11.172929952924989,-6.294035810392672,5.3045382727671555
4.4e-05,-13.208767715237023,-8.701202860517498,-7.358464892260005,-13.208767715237023
4.45e-05,-26.715012221880375,-5.94480100696941,-8.890044642411453,-26.715012221880375
4.4999999999999996e-05,-36.45927930306186,-4.855217727742294,-12.244438838384916,-36.45927930306186
4.5499999999999995e-05,-44.98518121365931,-4.364580786704459,-15.756696628992607,-44.98518121365931
4.6e-05,-52.621225970335146,-3.87667531438405,-19.128343159109576,-52.621225970335146
4.65e-05,-59.33745994266064,-3.37372689456228,-21.85116052195371,-59.33745994266064
4.7e-05,-65.09367478903235,-2.8456760654187314,-25.345818080789098,-65.09367478903235
4.7499999999999996e-05,-69.87854031390467,-2.3189878947592506,-26.743790965398535,-69.87854031390467
4.8e-05,-73.68616815481379,-1.78846889237053,-24.453703595882846,-73.68616815481379
4.85e-05,-76.48460864859234,-1.2265616955220067,-21.604733448605025,-76.48460864859234
4.9e-05,-78.2023860802352,-0.6241227736056673,-17.89834760687648,-78.2023860802352
4.95e-05,-78.75883130410018,0.02567979610941107,-13.209673926412515,-78.75883130410018
4.9999999999999996e-05,-78.10508600942428,0.6806186460037976,-9.469201423795408,-78.10508600942428
5.05e-05,-76.24915673433975,1.3213593378989392,-5.931196137343342,-76.24915673433975
5.1e-05,-73.20278578164952,1.966107575716367,-2.6659164137183415,-73.20278578164952
5.15e-05,-68.9749105415876,2.6025017688928815,-0.04714639941773717,-68.9749105415876
5.2e-05,-63.59423780036131,3.195289302806472,0.6776929627347126,-63.59423780036131
5.2499999999999995e-05,-57.17780982441431,3.720589548017072,1.2314218682802038,-57.17780982441431
5.3e-05,-49.856202117974135,4.1842745828371015,3.513694809209884,-49.856202117974135
5.35e-05,-41.71141129777415,4.612346038636295,9.205352461342024,-41.71141129777415
5.4e-05,-32.76597583031622,5.1127805745644554,17.89943464460642,-32.76597583031622
5.4499999999999997e-05,-22.033446183680393,6.693447058393126,29.785890720400804,-22.033446183680393
5.4999999999999995e-05,-7.791714755172988,8.488906116445463,39.81472559695546,-7.791714755172988
5.55e-05,9.047817634046769,9.462401799888429,49.75172793618036,9.047817634046769
5.6e-05,26.82154713315825,9.56205934721219,60.02396760723415,26.82154713315825
5.65e-05,44.192862839110234,9.251843530212671,72.717841820419,44.192862839110234
5.6999999999999996e-05,60.993835525178675,8.637334975226336,82.23694861915602,60.993835525178675
5.7499999999999995e-05,76.04091239266027,7.639658829755133,87.55191962982278,76.04091239266027
5.8e-05,89.08006931036184,6.347153862223375,88.8854129123277,89.08006931036184
5.85e-05,99.65510538108376,5.191662504441554,84.62019877990114,99.65510538108376
5.9e-05,108.71667487433186,4.644060120991982,77.96740818061178,108.71667487433186
5.9499999999999996e-05,116.84136893647941,4.124913986713548,70.09170726530758,116.84136893647941
5.9999999999999995e-05,123.9032850240831,3.4715930368127794,63.062974006659225,123.9032850240831
6.05e-05,129.62963458725318,2.6988035890137834,58.46396625225411,129.62963458725318
6.1e-05,133.87072659213172,1.8752871664768442,58.738538378991514,133.87072659213172
6.149999999999999e-05,136.57978343840887,1.0589623297954502,61.24574134951452,136.57978343840887
6.2e-05,137.80762626369471,0.2679543140502847,61.88774918583783,137.80762626369471
6.25e-05,137.5954954789217,-0.49640329041239295,60.24510563153787,137.5954954789217
6.3e-05,135.98792589347465,-1.230021174327081,58.3788199489514,135.98792589347465
6.35e-05,133.0352719580073,-1.9552974643427692,54.9725180214549,133.0352719580073
6.4e-05,128.75603449984953,-2.6591770826027137,55.49866237478619,128.75603449984953
6.45e-05,123.2490974716983,-3.2727371638504277,58.74602019402622,123.2490974716983
6.5e-05,116.68770840443852,-3.796760135944587,59.93818459331547,116.68770840443852
6.549999999999999e-05,109.24342144996055,-4.236408102511377,57.61625682813042,109.24342144996055
6.599999999999999e-05,101.06244389594127,-4.594546188493338,57.19323388902047,101.06244389594127
6.65e-05,92.25469261475338,-4.902645513196127,57.626766829675304,92.25469261475338
6.7e-05,82.8893693773512,-5.1952909067170365,59.33819486346191,82.8893693773512
6.75e-05,73.18257678691891,-5.244918595144845,57.51323783199234,73.18257678691891
6.8e-05,63.5111277731384,-5.1579310980036555,53.62141431768453,63.5111277731384
6.85e-05,54.08852868549094,-5.030925511570321,49.7306233278874,54.08852868549094
6.9e-05,44.970776427280214,-4.8146124113980555,45.98105235727474,44.970776427280214
6.95e-05,36.27366820957567,-4.568967732411174,41.94338418885238,36.27366820957567
7e-05,28.047635706799653,-4.315278311856876,38.73777682003648,28.047635706799653
7.049999999999999e-05,20.311879493773663,-4.047133149503551,33.81179969748552,20.311879493773663
7.099999999999999e-05,13.086314147753605,-3.7543973683527705,28.637653631452878,13.086314147753605
7.15e-05,6.414302818313564,-3.4472109522703054,24.48649286292614,6.414302818313564
7.2e-05,0.32182886182484793,-3.1288597819825745,22.28413183536631,0.32182886182484793
7.25e-05,-5.158979206670782,-2.7890783683053955,21.390974158605374,-5.158979206670782
7.3e-05,-9.977101741986365,-2.4127449325308152,17.72921606465016,-9.977101741986365
7.35e-05,-14.09639929126468,-2.030611288316942,11.452801161546551,-14.09639929126468
7.4e-05,-17.53791502429344,-1.6771406781508311,8.037694301222164,-17.53791502429344
7.45e-05,-20.342785075695204,-1.3613228563977406,5.973569966836734,-20.342785075695204
7.5e-05,-22.57151216260365,-1.0665510743490902,3.618481500834658,-22.57151216260365
7.549999999999999e-05,-24.26951830627432,-0.7664113321892947,4.4557966911585645,-24.26951830627432
7.599999999999999e-05,-25.390656151267976,-0.4403939038652236,6.789746294067332,-25.390656151267976
7.65e-05,-25.891473677731593,-0.09593860391594136,11.283577816734816,-25.891473677731593
7.7e-05,-25.71630721373996,0.29197265187221166,16.916489356489315,-25.71630721373996
7.75e-05,-24.793574274166428,0.7045736134546285,26.88856272796524,-24.793574274166428
7.8e-05,-23.05326059315009,1.2013980780667728,39.83194169960491,-23.05326059315009
7.85e-05,-20.28544496031212,1.7950320033614875,51.640763682305234,-20.28544496031212
7.9e-05,-16.324360283849362,2.5005757823654386,63.75596692191489,-16.324360283849362
7.95e-05,-11.02883979041112,3.206067440650876,76.39136749086879,-11.02883979041112
7.999999999999999e-05,-4.4136306259070235,3.9476322353033284,89.48905432626617,-4.4136306259070235
8.049999999999999e-05,3.671891516645327,4.787286421632537,99.3538379992607,3.671891516645327
8.099999999999999e-05,15.47867566321151,8.747566350363636,108.82491467654417,15.47867566321151
8.15e-05,36.261982162330455,13.288386566335415,117.98746470965136,36.261982162330455
8.2e-05,63.449170817710254,15.573277732007616,121.53063705238779,63.449170817710254
8.25e-05,92.37047877248703,15.23999625544727,119.54994073940799,92.37047877248703
8.3e-05,118.31375124621675,12.405506364369467,112.29392545210129,118.31375124621675
8.35e-05,137.3909319869453,8.167742989565086,104.28066165105136,137.3909319869453
8.4e-05,148.8881784686325,4.866860514371969,98.98478304533384,148.8881784686325
8.45e-05,157.19360308192435,4.112280385833592,97.39682473162857,157.19360308192435
8.499999999999999e-05,164.0880484339378,3.3294220572732627,97.28830506052516,164.0880484339378
8.549999999999999e-05,169.5192026941855,2.535426730945871,99.33833626276709,169.5192026941855
8.599999999999999e-05,173.47381440056705,1.7324045652566809,97.64106606759265,173.47381440056705
8.65e-05,175.90635184116314,0.8885389045710268,91.45126473094487,175.90635184116314
8.7e-05,176.74227125803165,0.012007491980350074,84.89295847653332,176.74227125803165
8.75e-05,175.92664359123776,-0.9021917135000248,79.55038508075751,175.92664359123776
8.8e-05,173.3941573876214,-1.8277029436503427,73.55545928508894,173.3941573876214
8.85e-05,169.14826399757604,-2.76636055745519,63.692846574366264,169.14826399757604
8.9e-05,163.13218261806048,-3.7231597178735125,52.96691866935418,163.13218261806048
8.95e-05,155.30235176019266,-4.737744533269288,41.087334006962834,155.30235176019266
8.999999999999999e-05,143.13734277862054,-9.654136276511258,31.575610347443014,143.13734277862054
9.049999999999999e-05,119.37480349407613,-15.478701550204688,23.808253956585155,119.37480349407613
9.099999999999999e-05,87.51083566056553,-18.451431174446927,14.971401894445517,87.51083566056553
9.15e-05,52.88500153097238,-18.444927012820855,5.198283347734143,52.88500153097238
9.2e-05,20.281334962357818,-16.57897500839046,-5.708673497722343,20.281334962357818
9.25e-05,-7.754840973053241,-13.576677090865994,-15.210276965891032,-7.754840973053241
9.3e-05,-29.676845937483026,-9.932056609904693,-21.90077125696801,-29.676845937483026
9.35e-05,-44.81773271579962,-6.501530213604232,-28.83117383112799,-44.81773271579962
9.4e-05,-54.994477803958866,-4.915181655250275,-34.379988534507376,-54.994477803958866
9.449999999999999e-05,-63.65004379209561,-4.444068942749723,-40.2414101128259,-63.65004379209561
9.499999999999999e-05,-71.472411812752,-4.006822366433639,-47.02796446239322,-71.472411812752
9.549999999999999e-05,-78.5132849531066,-3.6112502350997318,-53.78974063742643,-78.5132849531066
9.6e-05,-84.8397905027558,-3.212185728194579,-61.808136730445035,-84.8397905027558
9.65e-05,-90.44852979973516,-2.8708138348991286,-70.67912465225281,-90.44852979973516
9.7e-05,-95.47806851993228,-2.5611945401138767,-79.63571235839188,-95.47806851993228
9.75e-05,-99.97052005335814,-2.294797016604494,-83.46015891678528,-99.97052005335814
9.8e-05,-103.9703085194437,-2.02799601181587,-85.6437596384611,-103.9703085194437
9.85e-05,-107.49414354495079,-1.7785432247701523,-88.38436649603639,-107.49414354495079
9.9e-05,-110.5504964058735,-1.519455869992105,-90.24810449388312,-110.5504964058735
9.949999999999999e-05,-113.11745317157022,-1.2498019957880064,-91.62422083164327,-113.11745317157022
9.999999999999999e-05,-115.19442029427134,-0.9894216981539962,-92.51268528300525,-115.19442029427134
0.00010049999999999999,-116.78463122467124,-0.733544777355402,-91.23530713744111,-116.78463122467124
0.000101,-117.88651804943215,-0.45467427707155095,-88.07954514615648,-117.88651804943215
0.0001015,-118.44495527387795,-0.14394758730468993,-85.92748379266348,-118.44495527387795
0.000102,-118.40933109153391,0.18293431895719459,-85.22139358154597,-118.40933109153391
0.0001025,-117.76868503181524,0.5064152812391158,-86.24955791851133,-117.76868503181524
0.000103,-116.53792176689791,0.8121542676854683,-92.36721749288586,-116.53792176689791
0.0001035,-114.85165560105446,0.9902589998095696,-100.6793963766525,-114.85165560105446
0.000104,-112.9222420141397,1.0802276087798541,-104.36722386669459,-112.9222420141397
0.00010449999999999999,-110.87457972213981,1.1231626674727244,-103.06675391996414,-110.87457972213981
0.00010499999999999999,-108.76484946625185,1.1609135452846833,-100.79881664903716,-108.76484946625185
0.00010549999999999999,-106.5884205817383,1.1868675932577923,-97.09109152035494,-106.5884205817383
0.000106,-104.33738891497079,1.2512654286053557,-90.8222300723373,-104.33738891497079
0.0001065,-101.93254186631256,1.3580217162741393,-77.86370750124789,-101.93254186631256
0.000107,-99.20270489186575,1.6166276072645949,-62.54225248679109,-99.20270489186575
0.0001075,-95.9237730176861,1.9173066189270902,-49.2472776552968,-95.9237730176861
0.000108,-92.04323487843281,2.286908309907786,-40.43500043624546,-92.04323487843281
0.0001085,-87.4118436731478,2.7225603033292476,-36.31004548372032,-87.4118436731478
0.00010899999999999999,-81.97668245911498,3.139919568492386,-33.351319687807106,-81.97668245911498
0.00010949999999999999,-75.81371201908178,3.507203927041311,-32.846006653723514,-75.81371201908178
0.00010999999999999999,-69.0492484972172,3.783801068074702,-35.88676968135621,-69.0492484972172
0.00011049999999999999,-61.85396133731943,3.967370206232909,-40.929680944902564,-61.85396133731943
0.000111,-54.45162687441716,4.001160946209031,-46.70162271534255,-54.45162687441716
0.0001115,-47.099229834035896,3.9110595563711117,-48.0185589159169,-47.099229834035896
0.000112,-39.98960920324083,3.751550694177851,-46.2551619228589,-39.98960920324083
0.0001125,-33.237289331716795,3.5493684266684618,-43.28500886320147,-33.237289331716795
0.000113,-26.88623416946126,3.3080122734358914,-37.41941212217953,-26.88623416946126
