time,V_C,I_L,V_IN,V_C
0.0,0.0,0.0,5.469233292175892,0.0
1e-06,0.1964695017248531,0.09614190501151842,-7.54919721107059,0.1964695017248531
2e-06,0.25085912966221574,-0.07542598559721297,-19.16199056023211,0.25085912966221574
3e-06,-0.7246321247495718,-0.4437106450052218,-21.322100372727203,-0.7246321247495718
4e-06,-3.0394882941562638,-0.8097761380659796,-25.262580983351867,-3.0394882941562638
4.9999999999999996e-06,-6.713329914530869,-1.1656934807082098,-29.22589172065909,-6.713329914530869
6e-06,-11.643513214667689,-1.487392245170031,-29.398264484308406,-11.643513214667689
7e-06,-17.5740155817429,-1.6885092349879067,-34.245639916095115,-17.5740155817429
8e-06,-24.118976955517432,-1.841633667851734,-35.58590172228632,-24.118976955517432
9e-06,-31.07043008010168,-1.881413848937669,-30.88991794469885,-31.07043008010168
9.999999999999999e-06,-37.77123121070435,-1.7115882576927586,-33.57782864558493,-37.77123121070435
1.1e-05,-43.68434921384039,-1.4744468105588846,-35.553885894320764,-43.68434921384039
1.2e-05,-48.61348575724484,-1.1752291138026436,-33.56036277253533,-48.61348575724484
1.3e-05,-52.25814814600916,-0.7779513407403661,-28.688032453194236,-52.25814814600916
1.4e-05,-54.223195611161024,-0.2702796224150399,-32.132415145450516,-54.223195611161024
1.4999999999999999e-05,-54.359708287032134,0.17688919504002173,-41.96920452857866,-54.359708287032134
1.6e-05,-53.25446160402961,0.3773105272335922,-46.84691781023352,-53.25446160402961
1.7e-05,-51.68656135286551,0.46479895325012555,-46.93382386871883,-51.68656135286551
1.8e-05,-49.86366910733911,0.5168199335305519,-43.86246696300593,-49.86366910733911
1.8999999999999998e-05,-47.80336418921982,0.6043680919424079,-39.54240784595652,-47.80336418921982
1.9999999999999998e-05,-45.362874624054456,0.7073028043836569,-38.47141852786925,-45.362874624054456
2.1e-05,-42.592351246887624,0.7883758187099534,-36.103575251317736,-42.592351246887624
2.2e-05,-39.56101612588217,0.8374518008025702,-32.81570457088964,-39.56101612588217
2.3e-05,-36.387971749729495,0.8752961395659785,-30.519395574789034,-36.387971749729495
2.4e-05,-33.07241590521162,0.9431581888201492,-18.369929591834516,-33.07241590521162
2.4999999999999998e-05,-29.188715922097746,1.175609135212016,-5.855789848355375,-29.188715922097746
2.6e-05,-24.133836951229952,1.5593405934706475,-1.3496544924663145,-24.133836951229952
2.7e-05,-17.777360280755996,1.8436790031522599,2.6505325020206314,-17.777360280755996
2.8e-05,-10.572129275963576,2.0364412121117925,2.2704062250993906,-10.572129275963576
2.9e-05,-2.873894986399211,2.0965375289820085,6.653271695385237,-2.873894986399211
2.9999999999999997e-05,4.8957063617642955,2.094815277719516,15.810665006122411,4.8957063617642955
3.1e-05,12.748467294410316,2.146804288245442,20.709745146918387,12.748467294410316
3.2e-05,20.65486366046664,2.0947860600789903,28.705778861149422,20.65486366046664
3.2999999999999996e-05,28.31028841733791,2.043202919914122,38.69636044816599,28.31028841733791
3.4e-05,36.019423097983704,2.160219544656442,53.050259587134015,36.019423097983704
3.5e-05,44.29970779311111,2.29299788640471,73.55401365316479,44.29970779311111
3.6e-05,53.422118632641705,2.666654017863183,87.2695559015032,53.422118632641705
3.7e-05,64.13249512765172,3.084314386831581,90.0740714696302,64.13249512765172
3.7999999999999995e-05,76.01156494242376,3.2676590429362844,83.48052979898611,76.01156494242376
3.9e-05,87.83005949405927,3.038040722657847,71.35319257384295,87.83005949405927
3.9999999999999996e-05,97.85564993002578,2.306130726100469,60.044561529300246,97.85564993002578
4.1e-05,104.62047219277964,1.2985670187300635,52.64699682427594,104.62047219277964
4.2e-05,107.3949746189341,0.20684987745950134,49.26502708786345,107.3949746189341
4.2999999999999995e-05,106.10018879624076,-0.904829961814251,50.628976612851886,106.10018879624076
4.4e-05,100.86287358049194,-1.8784736480634605,53.872102925300865,100.86287358049194
4.4999999999999996e-05,92.48773169734335,-2.594032732232887,62.699335365265576,92.48773169734335
4.6e-05,82.1616172096079,-2.9246996417241573,72.36239191721475,82.1616172096079
4.7e-05,71.4005820799964,-2.783056806248003,93.36297509829257,71.4005820799964
4.8e-05,62.25292346711685,-2.103301412372134,112.63831092288866,62.25292346711685
4.9e-05,56.32432663726875,-1.0153463720263365,119.33711810982825,56.32432663726875
4.9999999999999996e-05,55.03684760206092,0.3194893960218379,115.83889573148227,55.03684760206092
5.1e-05,58.46243590723182,1.4735684536127036,111.93835975992468,58.46243590723182
5.2e-05,65.64443832352313,2.3539414573994923,107.31192338129333,65.64443832352313
5.3e-05,75.56516051864592,2.9641730403799667,106.06058795654349,75.56516051864592
5.4e-05,87.21452910620788,3.284953918291834,106.41435811712229,87.21452910620788
5.4999999999999995e-05,99.54139745854165,3.3217824917108683,103.5807997100199,99.54139745854165
5.6e-05,111.4882041716658,3.0919071283886086,92.61470523776994,111.4882041716658
5.6999999999999996e-05,121.87579486202002,2.4357858123183376,72.81831589013048,121.87579486202002
5.8e-05,128.61384026389754,1.1005575417221747,53.68236274863178,128.61384026389754
5.9e-05,129.81427181833274,-0.44289939705767,42.8353546766959,129.81427181833274
5.9999999999999995e-05,125.1803065502459,-2.0574772793819998,34.38439632503655,125.1803065502459
6.1e-05,114.53169798911742,-3.70150353871553,21.25825970567041,114.53169798911742
6.2e-05,97.95394227233855,-5.207849102522326,11.058011175291982,97.95394227233855
6.3e-05,76.2483823769765,-6.455695730534126,4.297579317630896,76.2483823769765
6.4e-05,50.72566304593293,-7.249700966181909,-4.8552587717490505,50.72566304593293
6.5e-05,23.011095796160895,-7.647842366555782,-11.732972619571749,23.011095796160895
6.599999999999999e-05,-5.394083202399528,-7.628999137230809,-17.754329786123787,-5.394083202399528
6.7e-05,-32.87803374370087,-7.128081861244116,-27.441552020744382,-32.87803374370087
6.8e-05,-57.87706173941373,-6.322276239991682,-32.77055019006971,-57.87706173941373
6.9e-05,-79.41827292598364,-5.268323180884946,-31.038468512537285,-79.41827292598364
7e-05,-96.51694349192066,-3.8878770507553813,-21.08149069869213,-96.51694349192066
7.099999999999999e-05,-107.57157973898163,-2.0511075492836937,-8.260606667896266,-107.57157973898163
7.2e-05,-111.29887499534335,0.08044391255697025,-6.076047908003598,-111.29887499534335
7.3e-05,-107.2004994815393,2.0986909711813233,-10.37099840997341,-107.2004994815393
7.4e-05,-96.18377824837067,3.786122817284852,-11.000397075266697,-96.18377824837067
7.5e-05,-79.70989658702878,5.036976059292903,-7.090930048303113,-79.70989658702878
7.599999999999999e-05,-59.277971052489335,5.969502910194407,4.9576293969832825,-59.277971052489335
7.7e-05,-35.18402353731315,7.020335755857819,36.03551485575642,-35.18402353731315
7.8e-05,-7.647806642425758,7.834231242205677,67.90286702855619,-7.647806642425758
7.9e-05,22.93921326809088,8.70054155063174,98.41578864149565,22.93921326809088
7.999999999999999e-05,56.54089845112716,9.345745194710057,126.62060333701739,56.54089845112716
8.099999999999999e-05,91.98352657583709,9.76831857337562,149.30569530454613,91.98352657583709
8.2e-05,128.59407236437707,9.961382342730177,163.43076268893842,128.59407236437707
8.3e-05,165.16680373273658,9.67330839273569,173.300158571153,165.16680373273658
8.4e-05,199.5885836796865,8.829203349578505,173.68657684741953,199.5885836796865
8.499999999999999e-05,230.01282732307675,7.5143949277993585,167.6550142910281,230.01282732307675
8.599999999999999e-05,254.67583730267697,5.664423725296093,157.1394550014248,254.67583730267697
8.7e-05,271.3535749322007,3.308033377115838,149.49679193318514,271.3535749322007
8.8e-05,278.6936002903654,0.6711112135987198,150.80647209909716,278.6936002903654
8.9e-05,276.47159016006304,-1.8286229747141873,142.67163701048196,276.47159016006304
8.999999999999999e-05,265.19588879938067,-4.247991898864501,132.9014717181094,265.19588879938067
9.099999999999999e-05,245.28591897339618,-6.454562766959648,114.56102801139,245.28591897339618
9.2e-05,217.66802089852308,-8.407991929508423,95.77209956818353,217.66802089852308
9.3e-05,183.4934846772358,-9.97310048212975,85.37020392274434,183.4934846772358
9.4e-05,144.50922824296825,-10.963346770136196,76.150526861169,144.50922824296825
9.499999999999999e-05,102.96079098079477,-11.364528975106966,61.07285231590079,102.96079098079477
9.6e-05,61.155227206332384,-11.11149971351235,44.50069381217985,61.155227206332384
9.7e-05,21.450355625020038,-10.283324183009062,33.07016250066404,21.450355625020038
9.8e-05,-14.694896451022288,-9.168845044789919,21.186008656293307,-14.694896451022288
9.9e-05,-45.9749186500577,-7.642436442342671,12.29141817664395,-45.9749186500577
9.999999999999999e-05,-70.88368119326947,-5.776574658781341,5.0336706871648085,-70.88368119326947
0.000101,-88.65840107953564,-3.8012572462728853,-0.7837858981139811,-88.65840107953564
0.000102,-98.97810771697267,-1.7683858953449239,6.588839045113928,-98.97810771697267
0.000103,-101.59222858278306,0.38204851959465014,15.079941475070049,-101.59222858278306
0.000104,-96.22904541535246,2.482012602848319,11.220551878817592,-96.22904541535246
0.00010499999999999999,-83.51306156351795,4.307710430835408,5.65668555454717,-83.51306156351795
0.000106,-64.91234756417435,5.632671501196484,-0.6724539394683281,-64.91234756417435
0.000107,-42.56745842567344,6.340919863028203,-2.7296825415423456,-42.56745842567344
0.000108,-18.62328416034635,6.49872248958608,-7.575427419038933,-18.62328416034635
0.00010899999999999999,4.897392680156244,6.105759397393582,-11.894223588255246,4.897392680156244
0.00010999999999999999,25.977146601619964,5.214660910449278,-11.02591385339215,25.977146601619964
0.000111,43.139851307030284,4.025258587840929,-6.612178034711142,43.139851307030284
0.000112,55.61735932219069,2.688165882662031,-9.090173139324504,55.61735932219069
0.000113,62.84475181172818,1.1953162254155572,-14.743405342774773,62.84475181172818
0.00011399999999999999,64.34640450590122,-0.4114031012437698,-22.57338624189577,64.34640450590122
0.00011499999999999999,59.74713820365477,-2.058964452727271,-29.488755293785974,59.74713820365477
0.000116,49.25288998178993,-3.560388186174032,-24.748144103823257,49.25288998178993
0.000117,33.92618232922975,-4.6367808948391005,-18.19658751549715,33.92618232922975
0.000118,15.53544706135294,-5.216135217772642,-17.949978986622604,15.53544706135294
0.00011899999999999999,-4.169645675475621,-5.3353369616577,-10.963689317952046,-4.169645675475621
0.00011999999999999999,-23.385979379786,-4.952052676788444,8.51480799260576,-23.385979379786
0.000121,-39.892634663911636,-3.8607971688395466,28.793191355434548,-39.892634663911636
0.000122,-51.13542503868467,-2.1363735763237344,35.65143763850499,-51.13542503868467
0.00012299999999999998,-55.581838089575605,-0.2726273804769649,37.36997282898257,-55.581838089575605
0.000124,-53.14214270029576,1.5822129334644441,43.11668552319868,-53.14214270029576
0.000125,-44.04727602033584,3.2873612784438895,44.949535255325586,-44.04727602033584
0.000126,-29.154500607896995,4.700441427103572,48.06886922082067,-29.154500607896995
0.000127,-9.685751294554159,5.7398394518086375,52.832815390445916,-9.685751294554159
0.000128,12.873148535792275,6.390306338741116,51.220428028510774,12.873148535792275
0.000129,36.98387642714168,6.502666815641245,42.845313546337955,36.98387642714168
0.00013,60.310417593091344,5.971833413113533,16.769338154837172,60.310417593091344
0.00013099999999999999,80.02517842654834,4.608242566420831,-12.815797376553297,80.02517842654834
0.00013199999999999998,93.44424381195688,2.476416250818893,-38.93888190373494,93.44424381195688
0.000133,97.40650475200115,-0.375125914651274,-62.20935633935294,97.40650475200115
0.000134,90.27912215833341,-3.418845055773002,-73.0756266863832,90.27912215833341
0.000135,72.2004057684718,-6.324135027767156,-86.01816906954883,72.2004057684718
0.000136,43.9319409526618,-8.848596608963403,-97.9079613034553,43.9319409526618
0.000137,7.3529412219971135,-10.782513476779734,-102.56842237607387,7.3529412219971135
0.000138,-34.842094273762996,-11.856557279794202,-98.18086395553095,-34.842094273762996
0.000139,-79.23651769925542,-11.971207681728783,-97.27746517642542,-79.23651769925542
0.00014,-122.3410726169846,-11.160151461199618,-90.22852856149862,-122.3410726169846
0.00014099999999999998,-160.81334272826103,-9.454763075759612,-83.1722128962417,-160.81334272826103
0.00014199999999999998,-191.57325053490263,-7.072974014920676,-80.9398122283796,-191.57325053490263
0.000143,-212.6676471712372,-4.263910534420549,-76.1615357814427,-212.6676471712372
0.000144,-222.87433542714868,-1.2122897908872972,-70.36464679244388,-222.87433542714868
0.000145,-221.6570179052298,1.8438181512902099,-67.59137668014743,-221.6570179052298
0.000146,-209.54200815925805,4.639828299998983,-65.15890377351022,-209.54200815925805
0.000147,-187.86305609231187,6.977134908558506,-63.91830077452006,-187.86305609231187
0.000148,-158.6114084860894,8.71091081809079,-60.66699170043738,-158.6114084860894
0.000149,-124.03110044334062,9.86111625258609,-51.06560090232368,-124.03110044334062
0.00015,-86.39692294514747,10.355866982891477,-35.37951574408033,-86.39692294514747
0.00015099999999999998,-48.00066589646343,10.324206851488452,-24.667065728674,-48.00066589646343
0.00015199999999999998,-10.3063024735563,9.941005557284461,-9.132576859772435,-10.3063024735563
0.000153,25.058992773917037,9.052599928577548,-5.527728981297021,25.058992773917037
0.000154,56.070087419398284,7.593853164653602,-5.154103825718307,56.070087419398284
0.000155,80.85578414166098,5.743220148509954,-1.3865360798099944,80.85578414166098
0.000156,98.27129132463045,3.6596523598036947,2.77772041697001,98.27129132463045
0.000157,107.82721971907387,1.4891978884216905,2.4999356681486145,107.82721971907387
0.000158,109.26547914161692,-0.7021525208985544,-0.3709668686235832,109.26547914161692
0.000159,102.81422228085404,-2.7559794744973285,-6.265102463891601,102.81422228085404
0.00015999999999999999,89.1498255104215,-4.5924634412170064,-13.070495622481094,89.1498255104215
0.00016099999999999998,69.21001019591992,-6.09302902296033,-13.495292158806858,69.21001019591992
0.00016199999999999998,44.557932178309,-7.111673416530578,-11.567292458881633,44.557932178309
0.000163,17.231561278127455,-7.533777409428112,-11.8982673398715,17.231561278127455
0.000164,-10.466376916418909,-7.3300039965826755,-7.481464161325703,-10.466376916418909
0.000165,-36.38758707016731,-6.583094466203301,-0.10220032606072055,-36.38758707016731
0.000166,-58.62173943777309,-5.305588514262406,11.04824941230552,-58.62173943777309
0.000167,-74.85519408767288,-3.4000834589826394,22.301679385872436,-74.85519408767288
0.000168,-83.39886928746805,-1.195839781954898,25.7089555358677,-83.39886928746805
0.000169,-83.75922272129822,1.000857986395543,24.762651364050534,-83.75922272129822
0.00016999999999999999,-76.19517461179133,3.0363435673615466,27.797059063475544,-76.19517461179133
0.00017099999999999998,-61.646988696883966,4.749888305964252,33.700775561563816,-61.646988696883966
0.00017199999999999998,-41.4231419500299,6.120420242121512,38.24111938400136,-41.4231419500299
0.000173,-16.754784802680007,7.120426519194915,43.32478994095577,-16.754784802680007
0.000174,10.712640606619146,7.621069049895923,52.42745529456719,10.712640606619146
0.000175,39.15500065333174,7.675716264003212,57.355280605962605,39.15500065333174
0.000176,67.0647264059441,7.323578710475226,61.81014473423926,67.0647264059441
0.000177,92.90261253359976,6.551360358768795,63.18856252986441,92.90261253359976
0.000178,115.07884329895207,5.359002958378808,63.15288502942822,115.07884329895207
0.000179,132.3156503912561,3.914872504077706,68.75279985207555,132.3156503912561
0.00017999999999999998,143.90613121132398,2.3374949774152785,78.57320781881945,143.90613121132398
0.00018099999999999998,149.76340023882253,0.873526766365142,91.63826789995954,149.76340023882253
0.00018199999999999998,150.71399641930583,-0.33368869467412354,107.62612672031189,150.71399641930583
0.000183,147.58403650426732,-1.2665841707122238,120.11750193049501,147.58403650426732
0.000184,141.9746967086346,-1.69785719075699,130.29380034190635,141.9746967086346
0.000185,135.548527916657,-1.717134403999547,134.95472385872844,135.548527916657
0.000186,129.4184941475852,-1.5749244610269553,136.9603899678864,129.4184941475852
0.000187,124.09224440260316,-1.2787829237363302,135.6331680579354,124.09224440260316
0.000188,119.99061361432797,-0.9347258237577911,133.24303986747165,119.99061361432797
0.00018899999999999999,117.12858652412943,-0.612679797526854,131.0294485184209,117.12858652412943
0.00018999999999999998,115.44479148100643,-0.3080714467462074,126.2178082924111,115.44479148100643
0.00019099999999999998,114.764685348987,-0.05211653581179587,129.00351932180106,114.764685348987
0.000192,115.09290428710563,0.21181150387837297,123.99155103997234,115.09290428710563
0.000193,116.16512647875157,0.36249991611187204,111.74989844889411,116.16512647875157
0.000194,117.3343886364731,0.2542923375752906,106.38982696090692,117.3343886364731
0.000195,117.87430153155772,0.02488171832897873,106.97774193418887,117.87430153155772
0.000196,117.57011235109614,-0.17437911115152166,110.6052547480719,117.57011235109614
0.000197,116.69883196648189,-0.2876682328726394,115.29722089481683,116.69883196648189
0.000198,115.61075688830807,-0.2912669816302424,115.95241093609374,115.61075688830807
0.00019899999999999999,114.5807791752495,-0.26548227548917974,109.44449198844885,114.5807791752495
0.00019999999999999998,113.42743301898874,-0.3919168987621558,100.80362621032458,113.42743301898874
0.00020099999999999998,111.58458067357526,-0.5942181863368771,90.30587769290258,111.58458067357526
0.000202,108.806641325855,-0.9299493851926998,84.97502357872503,108.806641325855
0.000203,104.63987316046718,-1.3036738455067987,78.6041680151142,104.63987316046718
0.000204,99.07069398469903,-1.732445917316044,67.25746912755201,99.07069398469903
0.000205,91.72876686849268,-2.236094070507458,55.3814775540681,91.72876686849268
0.000206,82.37219919285242,-2.8169388902680432,46.515274839335106,82.37219919285242
0.000207,71.0396727662561,-3.2920294123704954,35.32678020331353,71.0396727662561
0.000208,57.88780747998294,-3.8127117650467266,21.56824923400816,57.88780747998294
0.00020899999999999998,42.98809762329797,-4.212844975352926,11.59925672941669,42.98809762329797
0.00020999999999999998,26.799475261930162,-4.500310130046303,4.878331357167166,26.799475261930162
0.00021099999999999998,9.99210040125696,-4.5443188863935555,-3.3068057905034447,9.99210040125696
0.000212,-6.744938968379181,-4.471533436043286,-12.143033062139084,-6.744938968379181
0.000213,-22.836121438790947,-4.186269871706306,-19.89397121770846,-22.836121438790947
0.000214,-37.7547623031602,-3.8718710416404676,-34.81260372019537,-37.7547623031602
0.000215,-51.3827600521235,-3.448388681271445,-55.632192747888894,-51.3827600521235
0.000216,-63.569319377627465,-3.192352830563112,-75.91974665487955,-63.569319377627465
0.000217,-75.37272260997938,-3.1427763350162037,-91.07362955108741,-75.37272260997938
0.00021799999999999999,-87.01514567613306,-3.16216106477162,-96.98052057160771,-87.01514567613306
0.00021899999999999998,-98.61252793655981,-3.060215324009,-89.88494437575595,-98.61252793655981
0.00021999999999999998,-109.22764146926878,-2.6124329571093807,-76.64771798649306,-109.22764146926878
0.00022099999999999998,-117.35048809673656,-1.6964041613377183,-65.17220601870986,-117.35048809673656
0.000222,-121.48282536903852,-0.5178372247175924,-57.164858564145206,-121.48282536903852
0.000223,-121.02470797764902,0.7721177494994893,-55.580417214551744,-121.02470797764902
0.000224,-115.907942595169,1.9530424387856935,-55.100433798516015,-115.907942595169
0.000225,-106.78349373617601,2.9335439325861614,-54.786802679935754,-106.78349373617601
0.000226,-94.49454366711971,3.6606309017843475,-53.313433328179514,-94.49454366711971
0.000227,-80.02101071334148,4.102858293276395,-54.49065091441092,-80.02101071334148
